
T8EC4 000:302 SEGGER J-Link V4.98e Log File (0008ms, 0272ms total)
T8EC4 000:302 DLL Compiled: May  5 2015 11:00:52 (0008ms, 0272ms total)
T8EC4 000:302 Logging started @ 2017-05-15 16:30 (0008ms, 0272ms total)
T8EC4 000:310 JLINK_SetWarnOutHandler(...) (0000ms, 0272ms total)
T8EC4 000:310 JLINK_OpenEx(...)
Firmware: J-Link ARM V8 compiled Jan 31 2018 18:34:52
Hardware: V8.00
S/N: 20080643
Feature(s): RDI,FlashDL,FlashBP,JFlash,GDBFull  returns O.K. (0265ms, 0537ms total)
T8EC4 000:575 JLINK_SetErrorOutHandler(...) (0000ms, 0537ms total)
T8EC4 000:575 JLINK_ExecCommand("ProjectFile = "D:\工作\下位机程序\Firmware\E01SMB\MDK-ARM\JLinkSettings.ini"", ...)  returns 0x00 (0001ms, 0538ms total)
T8EC4 000:576 JLINK_ExecCommand("Device = STM32F103VC", ...)Device "STM32F103VC" selected.  returns 0x00 (0001ms, 0539ms total)
T8EC4 000:577 JLINK_ExecCommand("DisableConnectionTimeout", ...)  returns 0x01 (0000ms, 0540ms total)
T8EC4 000:578 JLINK_GetHardwareVersion()  returns 0x13880 (0000ms, 0540ms total)
T8EC4 000:578 JLINK_GetDLLVersion()  returns 49805 (0000ms, 0540ms total)
T8EC4 000:578 JLINK_GetFirmwareString(...) (0000ms, 0540ms total)
T8EC4 000:582 JLINK_GetDLLVersion()  returns 49805 (0000ms, 0540ms total)
T8EC4 000:582 JLINK_GetCompileDateTime() (0000ms, 0540ms total)
T8EC4 000:582 JLINK_GetFirmwareString(...) (0000ms, 0540ms total)
T8EC4 000:583 JLINK_GetHardwareVersion()  returns 0x13880 (0000ms, 0540ms total)
T8EC4 000:584 JLINK_TIF_Select(JLINKARM_TIF_SWD)  returns 0x00 (0001ms, 0541ms total)
T8EC4 000:585 JLINK_SetSpeed(1000) (0000ms, 0541ms total)
T8EC4 000:585 JLINK_GetId() >0x108 TIF>Found SWD-DP with ID 0x1BA01477 >0x0D TIF> >0x28 TIF> >0x0D TIF> >0x28 TIF> >0x0D TIF> >0x21 TIF> >0x0D TIF> >0x28 TIF> >0x0D TIF> >0x28 TIF> >0x0D TIF> >0x28 TIF> >0x0D TIF> >0x21 TIF> >0x0D TIF> >0x21 TIF> >0x0D TIF> >0x28 TIF> >0x0D TIF> >0x21 TIF> >0x0D TIF> >0x21 TIF> >0x108 TIF>Found SWD-DP with ID 0x1BA01477 >0x0D TIF> >0x21 TIF> >0x0D TIF> >0x28 TIF> >0x0D TIF> >0x28 TIF> >0x0D TIF> >0x21 TIF> >0x0D TIF> >0x28 TIF> >0x0D TIF> >0x21 TIF> >0x0D TIF> >0x21 TIF>
 >0x0D TIF> >0x21 TIF> >0x0D TIF> >0x28 TIF> >0x0D TIF> >0x21 TIF> >0x0D TIF> >0x28 TIF> >0x0D TIF> >0x28 TIF> >0x0D TIF> >0x21 TIF> >0x0D TIF> >0x28 TIF> >0x0D TIF> >0x28 TIF> >0x0D TIF> >0x28 TIF> >0x0D TIF> >0x21 TIF> >0x0D TIF> >0x21 TIF> >0x0D TIF> >0x28 TIF> >0x0D TIF> >0x21 TIF> >0x0D TIF> >0x21 TIF>Found Cortex-M3 r1p1, Little endian. >0x0D TIF> >0x28 TIF> -- CPU_WriteMem(4 bytes @ 0xE0002000) -- CPU_ReadMem(4 bytes @ 0xE000EDF0) -- CPU_ReadMem(4 bytes @ 0xE0002000)
FPUnit: 6 code (BP) slots and 2 literal slots -- CPU_ReadMem(4 bytes @ 0xE000EDFC) -- CPU_ReadMem(4 bytes @ 0xE0001000) -- CPU_WriteMem(4 bytes @ 0xE0001000) -- CPU_ReadMem(4 bytes @ 0xE000ED88) -- CPU_WriteMem(4 bytes @ 0xE000ED88) -- CPU_ReadMem(4 bytes @ 0xE000ED88) -- CPU_WriteMem(4 bytes @ 0xE000ED88)CoreSight components:ROMTbl 0 @ E00FF000 -- CPU_ReadMem(16 bytes @ 0xE00FF000) -- CPU_ReadMem(16 bytes @ 0xE000EFF0) -- CPU_ReadMem(16 bytes @ 0xE000EFE0)
ROMTbl 0 [0]: FFF0F000, CID: B105E00D, PID: 001BB000 SCS -- CPU_ReadMem(16 bytes @ 0xE0001FF0) -- CPU_ReadMem(16 bytes @ 0xE0001FE0)ROMTbl 0 [1]: FFF02000, CID: B105E00D, PID: 001BB002 DWT -- CPU_ReadMem(16 bytes @ 0xE0002FF0) -- CPU_ReadMem(16 bytes @ 0xE0002FE0)ROMTbl 0 [2]: FFF03000, CID: B105E00D, PID: 000BB003 FPB -- CPU_ReadMem(16 bytes @ 0xE0000FF0) -- CPU_ReadMem(16 bytes @ 0xE0000FE0)ROMTbl 0 [3]: FFF01000, CID: B105E00D, PID: 001BB001 ITM -- CPU_ReadMem(16 bytes @ 0xE00FF010)
 -- CPU_ReadMem(16 bytes @ 0xE0040FF0) -- CPU_ReadMem(16 bytes @ 0xE0040FE0)ROMTbl 0 [4]: FFF41000, CID: B105900D, PID: 001BB923 TPIU-Lite -- CPU_ReadMem(16 bytes @ 0xE0041FF0) -- CPU_ReadMem(16 bytes @ 0xE0041FE0)ROMTbl 0 [5]: FFF42000, CID: B105900D, PID: 101BB924 ETM-M3 >0x0D TIF> >0x21 TIF>  returns 0x1BA01477 (0053ms, 0594ms total)
T8EC4 000:638 JLINK_GetDLLVersion()  returns 49805 (0000ms, 0594ms total)
T8EC4 000:638 JLINK_CORE_GetFound()  returns 0x30000FF (0000ms, 0594ms total)
T8EC4 000:638 JLINK_GetDebugInfo(0x100) -- Value=0xE00FF003  returns 0x00 (0000ms, 0594ms total)
T8EC4 000:638 JLINK_ReadMem (0xE00FF000, 0x0020 Bytes, ...) -- CPU is running -- CPU_ReadMem(32 bytes @ 0xE00FF000) - Data: 03 F0 F0 FF 03 20 F0 FF 03 30 F0 FF 03 10 F0 FF ...  returns 0x00 (0001ms, 0595ms total)
T8EC4 000:639 JLINK_ReadMem (0xE000EFF0, 0x0010 Bytes, ...) -- CPU is running -- CPU_ReadMem(16 bytes @ 0xE000EFF0) - Data: 0D 00 00 00 E0 00 00 00 05 00 00 00 B1 00 00 00  returns 0x00 (0001ms, 0596ms total)
T8EC4 000:640 JLINK_ReadMem (0xE000EFD0, 0x0020 Bytes, ...) -- CPU is running -- CPU_ReadMem(32 bytes @ 0xE000EFD0) - Data: 04 00 00 00 00 00 00 00 00 00 00 00 00 00 00 00 ...  returns 0x00 (0001ms, 0597ms total)
T8EC4 000:641 JLINK_ReadMem (0xE0001FF0, 0x0010 Bytes, ...) -- CPU is running -- CPU_ReadMem(16 bytes @ 0xE0001FF0) - Data: 0D 00 00 00 E0 00 00 00 05 00 00 00 B1 00 00 00  returns 0x00 (0001ms, 0598ms total)
T8EC4 000:642 JLINK_ReadMem (0xE0001FD0, 0x0020 Bytes, ...) -- CPU is running -- CPU_ReadMem(32 bytes @ 0xE0001FD0) - Data: 04 00 00 00 00 00 00 00 00 00 00 00 00 00 00 00 ...  returns 0x00 (0001ms, 0599ms total)
T8EC4 000:643 JLINK_ReadMem (0xE0002FF0, 0x0010 Bytes, ...) -- CPU is running -- CPU_ReadMem(16 bytes @ 0xE0002FF0) - Data: 0D 00 00 00 E0 00 00 00 05 00 00 00 B1 00 00 00  returns 0x00 (0001ms, 0600ms total)
T8EC4 000:644 JLINK_ReadMem (0xE0002FD0, 0x0020 Bytes, ...) -- CPU is running -- CPU_ReadMem(32 bytes @ 0xE0002FD0) - Data: 04 00 00 00 00 00 00 00 00 00 00 00 00 00 00 00 ...  returns 0x00 (0001ms, 0601ms total)
T8EC4 000:645 JLINK_ReadMem (0xE0000FF0, 0x0010 Bytes, ...) -- CPU is running -- CPU_ReadMem(16 bytes @ 0xE0000FF0) - Data: 0D 00 00 00 E0 00 00 00 05 00 00 00 B1 00 00 00  returns 0x00 (0001ms, 0602ms total)
T8EC4 000:646 JLINK_ReadMem (0xE0000FD0, 0x0020 Bytes, ...) -- CPU is running -- CPU_ReadMem(32 bytes @ 0xE0000FD0) - Data: 04 00 00 00 00 00 00 00 00 00 00 00 00 00 00 00 ...  returns 0x00 (0001ms, 0603ms total)
T8EC4 000:647 JLINK_ReadMem (0xE0040FF0, 0x0010 Bytes, ...) -- CPU is running -- CPU_ReadMem(16 bytes @ 0xE0040FF0) - Data: 0D 00 00 00 90 00 00 00 05 00 00 00 B1 00 00 00  returns 0x00 (0001ms, 0604ms total)
T8EC4 000:648 JLINK_ReadMem (0xE0040FD0, 0x0020 Bytes, ...) -- CPU is running -- CPU_ReadMem(32 bytes @ 0xE0040FD0) - Data: 04 00 00 00 00 00 00 00 00 00 00 00 00 00 00 00 ...  returns 0x00 (0001ms, 0605ms total)
T8EC4 000:649 JLINK_ReadMem (0xE0041FF0, 0x0010 Bytes, ...) -- CPU is running -- CPU_ReadMem(16 bytes @ 0xE0041FF0) - Data: 0D 00 00 00 90 00 00 00 05 00 00 00 B1 00 00 00  returns 0x00 (0001ms, 0606ms total)
T8EC4 000:650 JLINK_ReadMem (0xE0041FD0, 0x0020 Bytes, ...) -- CPU is running -- CPU_ReadMem(32 bytes @ 0xE0041FD0) - Data: 04 00 00 00 00 00 00 00 00 00 00 00 00 00 00 00 ...  returns 0x00 (0001ms, 0607ms total)
T8EC4 000:651 JLINK_ReadMemU32(0xE000ED00, 0x0001 Items, ...) -- CPU is running -- CPU_ReadMem(4 bytes @ 0xE000ED00) - Data: 31 C2 1F 41  returns 0x01 (0001ms, 0608ms total)
T8EC4 000:652 JLINK_SetResetType(JLINKARM_RESET_TYPE_NORMAL)  returns JLINKARM_RESET_TYPE_NORMAL (0000ms, 0608ms total)
T8EC4 000:652 JLINK_Reset() -- CPU_WriteMem(4 bytes @ 0xE0002000) -- CPU_ReadMem(4 bytes @ 0xE000EDFC) -- CPU_WriteMem(4 bytes @ 0xE000EDFC) -- CPU_ReadMem(4 bytes @ 0xE0001000) (0021ms, 0629ms total)
T8EC4 000:673 JLINK_ReadReg(R15 (PC))  returns 0x08000148 (0000ms, 0629ms total)
T8EC4 000:673 JLINK_ReadReg(XPSR)  returns 0x01000000 (0000ms, 0629ms total)
T8EC4 000:673 JLINK_Halt()  returns 0x00 (0000ms, 0629ms total)
T8EC4 000:673 JLINK_IsHalted()  returns TRUE (0000ms, 0629ms total)
T8EC4 000:673 JLINK_ReadMemU32(0xE000EDF0, 0x0001 Items, ...) -- CPU_ReadMem(4 bytes @ 0xE000EDF0) - Data: 03 00 03 00  returns 0x01 (0001ms, 0630ms total)
T8EC4 000:674 JLINK_WriteU32(0xE000EDF0, 0xA05F0003) -- CPU_WriteMem(4 bytes @ 0xE000EDF0)  returns 0x00 (0001ms, 0631ms total)
T8EC4 000:675 JLINK_WriteU32(0xE000EDFC, 0x01000000) -- CPU_WriteMem(4 bytes @ 0xE000EDFC)  returns 0x00 (0000ms, 0631ms total)
T8EC4 000:676 JLINK_GetHWStatus(...)  returns 0x00 (0001ms, 0632ms total)
T8EC4 000:677 JLINK_GetNumBPUnits(Type = 0xFFFFFF00)  returns 0x06 (0000ms, 0632ms total)
T8EC4 000:677 JLINK_GetNumBPUnits(Type = 0xF0)  returns 0x2000 (0000ms, 0632ms total)
T8EC4 000:677 JLINK_GetNumWPUnits()  returns 0x04 (0000ms, 0632ms total)
T8EC4 000:678 JLINK_GetSpeed()  returns 0x3E8 (0000ms, 0632ms total)
T8EC4 000:678 JLINK_ReadMemU32(0xE000E004, 0x0001 Items, ...) -- CPU_ReadMem(4 bytes @ 0xE000E004) - Data: 01 00 00 00  returns 0x01 (0001ms, 0633ms total)
T8EC4 000:679 JLINK_ReadMemU32(0xE000E004, 0x0001 Items, ...) -- CPU_ReadMem(4 bytes @ 0xE000E004) - Data: 01 00 00 00  returns 0x01 (0001ms, 0634ms total)
T8EC4 000:680 JLINK_WriteMem(0xE0001000, 0x001C Bytes, ...) - Data: 01 00 00 00 00 00 00 00 00 00 00 00 00 00 00 00 ... -- CPU_WriteMem(28 bytes @ 0xE0001000)  returns 0x1C (0003ms, 0637ms total)
T8EC4 000:683 JLINK_ReadMem (0xE0001000, 0x001C Bytes, ...) -- CPU_ReadMem(28 bytes @ 0xE0001000) - Data: 01 00 00 40 00 00 00 00 00 00 00 00 00 00 00 00 ...  returns 0x00 (0001ms, 0638ms total)
T8EC4 000:684 JLINK_ReadReg(R15 (PC))  returns 0x08000148 (0000ms, 0638ms total)
T8EC4 000:684 JLINK_ReadReg(XPSR)  returns 0x01000000 (0000ms, 0638ms total)
T8EC4 001:101 JLINK_SetResetType(JLINKARM_RESET_TYPE_NORMAL)  returns JLINKARM_RESET_TYPE_NORMAL (0000ms, 0638ms total)
T8EC4 001:101 JLINK_Reset() -- CPU_WriteMem(4 bytes @ 0xE0002000) -- CPU_ReadMem(4 bytes @ 0xE000EDFC) -- CPU_WriteMem(4 bytes @ 0xE000EDFC) -- CPU_ReadMem(4 bytes @ 0xE0001000) (0021ms, 0659ms total)
T8EC4 001:123 JLINK_ReadReg(R15 (PC))  returns 0x08000148 (0000ms, 0660ms total)
T8EC4 001:123 JLINK_ReadReg(XPSR)  returns 0x01000000 (0000ms, 0660ms total)
T8EC4 001:266 JLINK_ReadMem (0x08000130, 0x003C Bytes, ...) -- CPU_ReadMem(128 bytes @ 0x08000100) -- Updating C cache (128 bytes @ 0x08000100) -- Read from C cache (60 bytes @ 0x08000130) - Data: DF F8 10 D0 00 F0 2E FD 00 F0 DE F8 00 48 00 47 ...  returns 0x00 (0003ms, 0663ms total)
T8EC4 001:348 JLINK_ReadMem (0x40010C00, 0x000C Bytes, ...) -- CPU_ReadMem(12 bytes @ 0x40010C00) - Data: 44 44 48 44 44 44 44 44 00 00 00 00  returns 0x00 (0001ms, 0664ms total)
T8EC4 001:349 JLINK_ReadMem (0x40010C0C, 0x0004 Bytes, ...) -- CPU_ReadMem(4 bytes @ 0x40010C0C) - Data: 10 00 00 00  returns 0x00 (0001ms, 0665ms total)
T8EC4 001:350 JLINK_ReadMem (0x40010C18, 0x0004 Bytes, ...) -- CPU_ReadMem(4 bytes @ 0x40010C18) - Data: 00 00 00 00  returns 0x00 (0000ms, 0665ms total)
T8EC4 001:392 JLINK_ReadMem (0x40011400, 0x000C Bytes, ...) -- CPU_ReadMem(12 bytes @ 0x40011400) - Data: 44 44 44 44 44 44 44 44 00 00 00 00  returns 0x00 (0001ms, 0666ms total)
T8EC4 001:393 JLINK_ReadMem (0x4001140C, 0x0004 Bytes, ...) -- CPU_ReadMem(4 bytes @ 0x4001140C) - Data: 00 00 00 00  returns 0x00 (0001ms, 0667ms total)
T8EC4 001:394 JLINK_ReadMem (0x40011418, 0x0004 Bytes, ...) -- CPU_ReadMem(4 bytes @ 0x40011418) - Data: 00 00 00 00  returns 0x00 (0000ms, 0667ms total)
T8EC4 001:425 JLINK_ReadMem (0x40005400, 0x0020 Bytes, ...) -- CPU_ReadMem(32 bytes @ 0x40005400) - Data: 00 00 00 00 00 00 00 00 00 00 00 00 00 00 00 00 ...  returns 0x00 (0001ms, 0668ms total)
T8EC4 001:426 JLINK_ReadMem (0x40005420, 0x0004 Bytes, ...) -- CPU_ReadMem(4 bytes @ 0x40005420) - Data: 00 00 00 00  returns 0x00 (0000ms, 0668ms total)
T8EC4 001:453 JLINK_ReadMem (0x40000800, 0x0010 Bytes, ...) -- CPU_ReadMem(16 bytes @ 0x40000800) - Data: 00 00 00 00 00 00 00 00 00 00 00 00 00 00 00 00  returns 0x00 (0001ms, 0669ms total)
T8EC4 001:454 JLINK_ReadMem (0x40000810, 0x0004 Bytes, ...) -- CPU_ReadMem(4 bytes @ 0x40000810) - Data: 00 00 00 00  returns 0x00 (0000ms, 0669ms total)
T8EC4 001:454 JLINK_ReadMem (0x40000818, 0x0014 Bytes, ...) -- CPU_ReadMem(20 bytes @ 0x40000818) - Data: 00 00 00 00 00 00 00 00 00 00 00 00 00 00 00 00 ...  returns 0x00 (0001ms, 0670ms total)
T8EC4 001:455 JLINK_ReadMem (0x4000082C, 0x0004 Bytes, ...) -- CPU_ReadMem(4 bytes @ 0x4000082C) - Data: 00 00 00 00  returns 0x00 (0001ms, 0671ms total)
T8EC4 001:456 JLINK_ReadMem (0x40000834, 0x000C Bytes, ...) -- CPU_ReadMem(12 bytes @ 0x40000834) - Data: 00 00 00 00 00 00 00 00 00 00 00 00  returns 0x00 (0001ms, 0672ms total)
T8EC4 001:457 JLINK_ReadMem (0x40000840, 0x0004 Bytes, ...) -- CPU_ReadMem(4 bytes @ 0x40000840) - Data: 00 00 00 00  returns 0x00 (0000ms, 0672ms total)
T8EC4 001:457 JLINK_ReadMem (0x40000848, 0x0004 Bytes, ...) -- CPU_ReadMem(4 bytes @ 0x40000848) - Data: 00 00 00 00  returns 0x00 (0001ms, 0673ms total)
T8EC4 001:458 JLINK_ReadMem (0x4000084C, 0x0004 Bytes, ...) -- CPU_ReadMem(4 bytes @ 0x4000084C) - Data: 00 00 00 00  returns 0x00 (0000ms, 0673ms total)
T8EC4 002:426 JLINK_ReadMem (0x20005868, 0x0261 Bytes, ...) -- CPU_ReadMem(704 bytes @ 0x20005840) -- Updating C cache (704 bytes @ 0x20005840) -- Read from C cache (609 bytes @ 0x20005868) - Data: 61 62 63 64 65 66 67 68 69 6A 6B 6C 6D 6E 6F 70 ...  returns 0x00 (0017ms, 0690ms total)
T8EC4 002:443 JLINK_ReadMem (0x20002FE0, 0x0020 Bytes, ...) -- CPU_ReadMem(64 bytes @ 0x20002FC0) -- Updating C cache (64 bytes @ 0x20002FC0) -- Read from C cache (32 bytes @ 0x20002FE0) - Data: 00 00 00 00 00 00 00 00 00 00 00 00 00 00 00 00 ...  returns 0x00 (0002ms, 0692ms total)
T8EC4 002:445 JLINK_ReadMem (0x20003000, 0x0241 Bytes, ...) -- CPU_ReadMem(640 bytes @ 0x20003000) -- Updating C cache (640 bytes @ 0x20003000) -- Read from C cache (577 bytes @ 0x20003000) - Data: 00 00 00 00 00 00 00 00 00 00 00 00 00 00 00 00 ...  returns 0x00 (0010ms, 0702ms total)
TD488 002:504 JLINK_SetBPEx(Addr = 0x0800AA1C, Type = 0xFFFFFFF2)  returns 0x00000001 (0000ms, 0703ms total)
TD488 002:504 JLINK_Go() -- CPU_WriteMem(4 bytes @ 0xE0002000) -- CPU_ReadMem(4 bytes @ 0xE0001000) -- CPU_WriteMem(4 bytes @ 0xE0002008) -- CPU_WriteMem(4 bytes @ 0xE000200C) -- CPU_WriteMem(4 bytes @ 0xE0002010) -- CPU_WriteMem(4 bytes @ 0xE0002014) -- CPU_WriteMem(4 bytes @ 0xE0002018) -- CPU_WriteMem(4 bytes @ 0xE000201C) -- CPU_WriteMem(4 bytes @ 0xE0001004) (0006ms, 0709ms total)
TD488 002:611 JLINK_IsHalted()  returns TRUE (0007ms, 0717ms total)
TD488 002:618 JLINK_Halt()  returns 0x00 (0000ms, 0710ms total)
TD488 002:618 JLINK_IsHalted()  returns TRUE (0000ms, 0710ms total)
TD488 002:618 JLINK_IsHalted()  returns TRUE (0000ms, 0710ms total)
TD488 002:618 JLINK_IsHalted()  returns TRUE (0000ms, 0710ms total)
TD488 002:618 JLINK_ReadReg(R15 (PC))  returns 0x0800AA1C (0001ms, 0711ms total)
TD488 002:619 JLINK_ReadReg(XPSR)  returns 0x61000000 (0000ms, 0711ms total)
TD488 002:619 JLINK_ClrBPEx(BPHandle = 0x00000001)  returns 0x00 (0000ms, 0711ms total)
TD488 002:619 JLINK_ReadMemU32(0xE000ED30, 0x0001 Items, ...) -- CPU_ReadMem(4 bytes @ 0xE000ED30) - Data: 03 00 00 00  returns 0x01 (0001ms, 0712ms total)
TD488 002:620 JLINK_ReadMemU32(0xE0001028, 0x0001 Items, ...) -- CPU_ReadMem(4 bytes @ 0xE0001028) - Data: 00 00 00 00  returns 0x01 (0000ms, 0712ms total)
TD488 002:620 JLINK_ReadMemU32(0xE0001038, 0x0001 Items, ...) -- CPU_ReadMem(4 bytes @ 0xE0001038) - Data: 00 02 00 00  returns 0x01 (0001ms, 0713ms total)
TD488 002:621 JLINK_ReadMemU32(0xE0001048, 0x0001 Items, ...) -- CPU_ReadMem(4 bytes @ 0xE0001048) - Data: 00 00 00 00  returns 0x01 (0001ms, 0714ms total)
TD488 002:622 JLINK_ReadMemU32(0xE0001058, 0x0001 Items, ...) -- CPU_ReadMem(4 bytes @ 0xE0001058) - Data: 00 00 00 00  returns 0x01 (0001ms, 0715ms total)
TD488 002:623 JLINK_ReadReg(R0)  returns 0x0800AA1D (0000ms, 0715ms total)
TD488 002:623 JLINK_ReadReg(R1)  returns 0x20004318 (0000ms, 0715ms total)
TD488 002:623 JLINK_ReadReg(R2)  returns 0x20000340 (0000ms, 0715ms total)
TD488 002:623 JLINK_ReadReg(R3)  returns 0x20004354 (0000ms, 0715ms total)
TD488 002:623 JLINK_ReadReg(R4)  returns 0x0800CD44 (0000ms, 0715ms total)
TD488 002:623 JLINK_ReadReg(R5)  returns 0x0800CD44 (0000ms, 0715ms total)
TD488 002:623 JLINK_ReadReg(R6)  returns 0x0000000D (0000ms, 0715ms total)
TD488 002:623 JLINK_ReadReg(R7)  returns 0x00000000 (0001ms, 0716ms total)
TD488 002:624 JLINK_ReadReg(R8)  returns 0x20001EF8 (0000ms, 0716ms total)
TD488 002:624 JLINK_ReadReg(R9)  returns 0x20001EF8 (0000ms, 0716ms total)
TD488 002:624 JLINK_ReadReg(R10)  returns 0x00000000 (0000ms, 0716ms total)
TD488 002:624 JLINK_ReadReg(R11)  returns 0x0000002F (0000ms, 0716ms total)
TD488 002:624 JLINK_ReadReg(R12)  returns 0x0000036F (0000ms, 0716ms total)
TD488 002:624 JLINK_ReadReg(R13 (SP))  returns 0x20009D00 (0000ms, 0716ms total)
TD488 002:624 JLINK_ReadReg(R14)  returns 0x08009D91 (0000ms, 0716ms total)
TD488 002:624 JLINK_ReadReg(R15 (PC))  returns 0x0800AA1C (0000ms, 0716ms total)
TD488 002:624 JLINK_ReadReg(XPSR)  returns 0x61000000 (0000ms, 0716ms total)
TD488 002:624 JLINK_ReadReg(MSP)  returns 0x20009D00 (0000ms, 0716ms total)
TD488 002:624 JLINK_ReadReg(PSP)  returns 0x20001000 (0000ms, 0716ms total)
TD488 002:624 JLINK_ReadReg(CFBP)  returns 0x00000000 (0000ms, 0716ms total)
T8EC4 002:638 JLINK_ReadMemU32(0xE0001004, 0x0001 Items, ...) -- CPU_ReadMem(4 bytes @ 0xE0001004) - Data: C6 92 01 00  returns 0x01 (0001ms, 0717ms total)
T8EC4 002:644 JLINK_ReadMem (0x40011400, 0x000C Bytes, ...) -- CPU_ReadMem(12 bytes @ 0x40011400) - Data: 44 44 44 44 44 44 44 44 00 00 00 00  returns 0x00 (0001ms, 0718ms total)
T8EC4 002:645 JLINK_ReadMem (0x4001140C, 0x0004 Bytes, ...) -- CPU_ReadMem(4 bytes @ 0x4001140C) - Data: 00 00 00 00  returns 0x00 (0001ms, 0719ms total)
T8EC4 002:646 JLINK_ReadMem (0x40011418, 0x0004 Bytes, ...) -- CPU_ReadMem(4 bytes @ 0x40011418) - Data: 00 00 00 00  returns 0x00 (0001ms, 0720ms total)
T8EC4 002:648 JLINK_ReadMem (0x40000800, 0x0010 Bytes, ...) -- CPU_ReadMem(16 bytes @ 0x40000800) - Data: 00 00 00 00 00 00 00 00 00 00 00 00 00 00 00 00  returns 0x00 (0001ms, 0721ms total)
T8EC4 002:649 JLINK_ReadMem (0x40000810, 0x0004 Bytes, ...) -- CPU_ReadMem(4 bytes @ 0x40000810) - Data: 00 00 00 00  returns 0x00 (0001ms, 0722ms total)
T8EC4 002:650 JLINK_ReadMem (0x40000818, 0x0014 Bytes, ...) -- CPU_ReadMem(20 bytes @ 0x40000818) - Data: 00 00 00 00 00 00 00 00 00 00 00 00 00 00 00 00 ...  returns 0x00 (0001ms, 0723ms total)
T8EC4 002:651 JLINK_ReadMem (0x4000082C, 0x0004 Bytes, ...) -- CPU_ReadMem(4 bytes @ 0x4000082C) - Data: 00 00 00 00  returns 0x00 (0001ms, 0724ms total)
T8EC4 002:652 JLINK_ReadMem (0x40000834, 0x000C Bytes, ...) -- CPU_ReadMem(12 bytes @ 0x40000834) - Data: 00 00 00 00 00 00 00 00 00 00 00 00  returns 0x00 (0001ms, 0725ms total)
T8EC4 002:653 JLINK_ReadMem (0x40000840, 0x0004 Bytes, ...) -- CPU_ReadMem(4 bytes @ 0x40000840) - Data: 00 00 00 00  returns 0x00 (0001ms, 0726ms total)
T8EC4 002:654 JLINK_ReadMem (0x40000848, 0x0004 Bytes, ...) -- CPU_ReadMem(4 bytes @ 0x40000848) - Data: 00 00 00 00  returns 0x00 (0001ms, 0727ms total)
T8EC4 002:655 JLINK_ReadMem (0x4000084C, 0x0004 Bytes, ...) -- CPU_ReadMem(4 bytes @ 0x4000084C) - Data: 00 00 00 00  returns 0x00 (0000ms, 0727ms total)
T8EC4 002:656 JLINK_ReadMem (0x40010C00, 0x000C Bytes, ...) -- CPU_ReadMem(12 bytes @ 0x40010C00) - Data: 44 44 48 44 44 44 44 44 00 00 00 00  returns 0x00 (0001ms, 0728ms total)
T8EC4 002:657 JLINK_ReadMem (0x40010C0C, 0x0004 Bytes, ...) -- CPU_ReadMem(4 bytes @ 0x40010C0C) - Data: 10 00 00 00  returns 0x00 (0001ms, 0729ms total)
T8EC4 002:658 JLINK_ReadMem (0x40010C18, 0x0004 Bytes, ...) -- CPU_ReadMem(4 bytes @ 0x40010C18) - Data: 00 00 00 00  returns 0x00 (0001ms, 0730ms total)
T8EC4 002:659 JLINK_ReadMem (0x40005400, 0x0020 Bytes, ...) -- CPU_ReadMem(32 bytes @ 0x40005400) - Data: 00 00 00 00 00 00 00 00 00 00 00 00 00 00 00 00 ...  returns 0x00 (0002ms, 0732ms total)
T8EC4 002:661 JLINK_ReadMem (0x40005420, 0x0004 Bytes, ...) -- CPU_ReadMem(4 bytes @ 0x40005420) - Data: 00 00 00 00  returns 0x00 (0000ms, 0732ms total)
T8EC4 002:669 JLINK_ReadMem (0x0800AA1A, 0x0002 Bytes, ...) -- CPU_ReadMem(64 bytes @ 0x0800AA00) -- Updating C cache (64 bytes @ 0x0800AA00) -- Read from C cache (2 bytes @ 0x0800AA1A) - Data: 10 BD  returns 0x00 (0002ms, 0734ms total)
T8EC4 002:671 JLINK_ReadMem (0x0800AA1C, 0x003C Bytes, ...) -- CPU_ReadMem(64 bytes @ 0x0800AA40) -- Updating C cache (64 bytes @ 0x0800AA40) -- Read from C cache (60 bytes @ 0x0800AA1C) - Data: 70 B5 FB F7 C3 FB 00 24 09 4D 04 E0 05 EB C0 00 ...  returns 0x00 (0002ms, 0736ms total)
T8EC4 002:704 JLINK_ReadMem (0x0800823A, 0x0002 Bytes, ...) -- CPU_ReadMem(64 bytes @ 0x08008200) -- Updating C cache (64 bytes @ 0x08008200) -- Read from C cache (2 bytes @ 0x0800823A) - Data: FF F7  returns 0x00 (0002ms, 0738ms total)
T8EC4 002:706 JLINK_ReadMem (0x0800823C, 0x003C Bytes, ...) -- CPU_ReadMem(64 bytes @ 0x08008240) -- Updating C cache (64 bytes @ 0x08008240) -- Read from C cache (60 bytes @ 0x0800823C) - Data: 19 FF 00 20 10 BD 00 00 10 B5 30 4C E0 68 00 68 ...  returns 0x00 (0002ms, 0740ms total)
TD488 003:170 JLINK_Go() -- CPU_ReadMem(4 bytes @ 0xE0001000) -- CPU_WriteMem(4 bytes @ 0xE0002008) (0002ms, 0742ms total)
TD488 003:274 JLINK_IsHalted()  returns FALSE (0000ms, 0742ms total)
TD488 003:376 JLINK_IsHalted()  returns FALSE (0000ms, 0742ms total)
TD488 003:477 JLINK_IsHalted()  returns FALSE (0001ms, 0743ms total)
TD488 003:578 JLINK_IsHalted()  returns FALSE (0000ms, 0742ms total)
TD488 003:679 JLINK_IsHalted()  returns FALSE (0000ms, 0742ms total)
TD488 003:780 JLINK_ReadMemU32(0xE0001004, 0x0001 Items, ...) -- CPU is running -- CPU_ReadMem(4 bytes @ 0xE0001004) - Data: 0E 67 9C 02  returns 0x01 (0000ms, 0742ms total)
T8EC4 003:783 JLINK_ReadMem (0x40011400, 0x000C Bytes, ...) -- CPU is running -- CPU_ReadMem(12 bytes @ 0x40011400) - Data: 33 44 B3 44 44 43 88 88 74 F8 00 00  returns 0x00 (0001ms, 0743ms total)
T8EC4 003:784 JLINK_ReadMem (0x4001140C, 0x0004 Bytes, ...) -- CPU is running -- CPU_ReadMem(4 bytes @ 0x4001140C) - Data: 10 F0 00 00  returns 0x00 (0001ms, 0744ms total)
T8EC4 003:785 JLINK_ReadMem (0x40011418, 0x0004 Bytes, ...) -- CPU is running -- CPU_ReadMem(4 bytes @ 0x40011418) - Data: 00 00 00 00  returns 0x00 (0000ms, 0744ms total)
T8EC4 003:786 JLINK_ReadMem (0x40000800, 0x0010 Bytes, ...) -- CPU is running -- CPU_ReadMem(16 bytes @ 0x40000800) - Data: 01 00 00 00 00 00 00 00 03 00 00 00 00 00 00 00  returns 0x00 (0001ms, 0745ms total)
T8EC4 003:787 JLINK_ReadMem (0x40000810, 0x0004 Bytes, ...) -- CPU is running -- CPU_ReadMem(4 bytes @ 0x40000810) - Data: 01 00 00 00  returns 0x00 (0001ms, 0746ms total)
T8EC4 003:788 JLINK_ReadMem (0x40000818, 0x0014 Bytes, ...) -- CPU is running -- CPU_ReadMem(20 bytes @ 0x40000818) - Data: 01 01 00 00 00 00 00 00 11 00 00 00 00 00 00 00 ...  returns 0x00 (0001ms, 0747ms total)
T8EC4 003:789 JLINK_ReadMem (0x4000082C, 0x0004 Bytes, ...) -- CPU is running -- CPU_ReadMem(4 bytes @ 0x4000082C) - Data: FF FF 00 00  returns 0x00 (0000ms, 0747ms total)
T8EC4 003:789 JLINK_ReadMem (0x40000834, 0x000C Bytes, ...) -- CPU is running -- CPU_ReadMem(12 bytes @ 0x40000834) - Data: 00 00 00 00 00 00 00 00 00 00 00 00  returns 0x00 (0001ms, 0748ms total)
T8EC4 003:790 JLINK_ReadMem (0x40000840, 0x0004 Bytes, ...) -- CPU is running -- CPU_ReadMem(4 bytes @ 0x40000840) - Data: 00 00 00 00  returns 0x00 (0001ms, 0749ms total)
T8EC4 003:791 JLINK_ReadMem (0x40000848, 0x0004 Bytes, ...) -- CPU is running -- CPU_ReadMem(4 bytes @ 0x40000848) - Data: 00 00 00 00  returns 0x00 (0001ms, 0750ms total)
T8EC4 003:792 JLINK_ReadMem (0x4000084C, 0x0004 Bytes, ...) -- CPU is running -- CPU_ReadMem(4 bytes @ 0x4000084C) - Data: 01 00 00 00  returns 0x00 (0001ms, 0751ms total)
T8EC4 003:795 JLINK_ReadMem (0x40010C00, 0x000C Bytes, ...) -- CPU is running -- CPU_ReadMem(12 bytes @ 0x40010C00) - Data: 88 84 48 44 34 4B 84 38 FB CD 00 00  returns 0x00 (0001ms, 0752ms total)
T8EC4 003:796 JLINK_ReadMem (0x40010C0C, 0x0004 Bytes, ...) -- CPU is running -- CPU_ReadMem(4 bytes @ 0x40010C0C) - Data: 1B E0 00 00  returns 0x00 (0000ms, 0752ms total)
T8EC4 003:796 JLINK_ReadMem (0x40010C18, 0x0004 Bytes, ...) -- CPU is running -- CPU_ReadMem(4 bytes @ 0x40010C18) - Data: 00 00 00 00  returns 0x00 (0001ms, 0753ms total)
T8EC4 003:798 JLINK_ReadMem (0x40005400, 0x0020 Bytes, ...) -- CPU is running -- CPU_ReadMem(32 bytes @ 0x40005400) - Data: 00 00 00 00 00 00 00 00 00 00 00 00 00 00 00 00 ...  returns 0x00 (0001ms, 0754ms total)
T8EC4 003:799 JLINK_ReadMem (0x40005420, 0x0004 Bytes, ...) -- CPU is running -- CPU_ReadMem(4 bytes @ 0x40005420) - Data: 00 00 00 00  returns 0x00 (0000ms, 0754ms total)
TD488 003:800 JLINK_IsHalted()  returns FALSE (0000ms, 0754ms total)
TD488 003:901 JLINK_IsHalted()  returns FALSE (0000ms, 0754ms total)
TD488 004:003 JLINK_IsHalted()  returns FALSE (0000ms, 0754ms total)
TD488 004:104 JLINK_IsHalted()  returns FALSE (0000ms, 0754ms total)
TD488 004:206 JLINK_IsHalted()  returns FALSE (0000ms, 0754ms total)
TD488 004:307 JLINK_ReadMemU32(0xE0001004, 0x0001 Items, ...) -- CPU is running -- CPU_ReadMem(4 bytes @ 0xE0001004) - Data: D8 7A DF 04  returns 0x01 (0000ms, 0754ms total)
